
T6438 000:194 SEGGER J-Link V6.16a Log File (0000ms, 0058ms total)
T6438 000:194 DLL Compiled: Jun  6 2017 12:42:51 (0000ms, 0058ms total)
T6438 000:194 Logging started @ 2018-06-10 17:21 (0000ms, 0058ms total)
T6438 000:194 JLINK_SetWarnOutHandler(...) (0000ms, 0058ms total)
T6438 000:194 JLINK_OpenEx(...)
Firmware: J-Link ARM V8 compiled Nov 28 2014 13:44:46
Hardware: V8.00
S/N: 17935099
Feature(s): RDI,FlashDL,FlashBP,JFlashWEBSRV Webserver running on local port 19080 (0051ms, 0109ms total)
T6438 000:194   returns O.K. (0051ms, 0109ms total)
T6438 000:245 JLINK_SetErrorOutHandler(...) (0000ms, 0109ms total)
T6438 000:245 JLINK_ExecCommand("ProjectFile = "P:\外接小项目\pwm\User\JLinkSettings.ini"", ...). C:\Program Files (x86)\SEGGER\JLink_V616a\JLinkDevices.xml evaluated successfully.  returns 0x00 (0096ms, 0205ms total)
T6438 000:350 JLINK_ExecCommand("Device = STM32F103ZE", ...). Device "STM32F103ZE" selected.  returns 0x00 (0009ms, 0215ms total)
T6438 000:359 JLINK_ExecCommand("DisableConnectionTimeout", ...).   returns 0x01 (0000ms, 0215ms total)
T6438 000:359 JLINK_GetHardwareVersion()  returns 0x13880 (0000ms, 0215ms total)
T6438 000:359 JLINK_GetDLLVersion()  returns 61601 (0000ms, 0215ms total)
T6438 000:359 JLINK_GetFirmwareString(...) (0000ms, 0215ms total)
T6438 000:405 JLINK_GetDLLVersion()  returns 61601 (0000ms, 0215ms total)
T6438 000:405 JLINK_GetCompileDateTime() (0000ms, 0215ms total)
T6438 000:416 JLINK_GetFirmwareString(...) (0000ms, 0215ms total)
T6438 000:435 JLINK_GetHardwareVersion()  returns 0x13880 (0000ms, 0215ms total)
T6438 000:497 JLINK_TIF_Select(JLINKARM_TIF_JTAG)  returns 0x00 (0006ms, 0221ms total)
T6438 000:503 JLINK_SetSpeed(5000) (0001ms, 0222ms total)
T6438 000:504 JLINK_GetIdData(...) >0x2F8 JTAG>TotalIRLen = 9, IRPrint = 0x0011 >0x30 JTAG> >0x50 JTAG>JTAG chain detection found 2 devices: #0 Id: 0x3BA00477, IRLen: 04, CoreSight JTAG-DP #1 Id: 0x06414041, IRLen: 05, STM32 Boundary Scan >0x40 JTAG> >0x40 JTAG> >0x40 JTAG> >0x30 JTAG> >0x40 JTAG> >0x40 JTAG> >0x40 JTAG> >0x40 JTAG> >0x40 JTAG> >0x40 JTAG> >0x40 JTAG> >0x40 JTAG> >0x40 JTAG> >0x40 JTAG> >0x40 JTAG> >0x40 JTAG> >0x40 JTAG> >0x40 JTAG> >0x40 JTAG> >0x40 JTAG> >0x40 JTAG> >0x40 JTAG>
 >0x40 JTAG> >0x40 JTAG> >0x40 JTAG> >0x40 JTAG> >0x40 JTAG> >0x2F8 JTAG>TotalIRLen = 9, IRPrint = 0x0011 >0x30 JTAG> >0x50 JTAG>JTAG chain detection found 2 devices: #0 Id: 0x3BA00477, IRLen: 04, CoreSight JTAG-DP #1 Id: 0x06414041, IRLen: 05, STM32 Boundary ScanScanning APs, stopping at first AHB-AP found. >0x80 JTAG> >0x50 JTAG> >0x50 JTAG>AP[0] IDR: 0x14770011 (AHB-AP) >0x40 JTAG> >0x50 JTAG> >0x50 JTAG>AHB-AP ROM: 0xE00FF000 (Base addr. of first ROM table) >0x80 JTAG> >0x40 JTAG> >0x30 JTAG>
 >0x40 JTAG> >0x40 JTAG> >0x30 JTAG> >0x40 JTAG> >0x50 JTAG>CPUID reg.: 0x411FC231. Implementer code: 0x41 (ARM)Found Cortex-M3 r1p1, Little endian. -- CPU_ReadMem(4 bytes @ 0xE000EDF0) -- CPU_WriteMem(4 bytes @ 0xE000EDF0) -- CPU_ReadMem(4 bytes @ 0xE0002000)FPUnit: 6 code (BP) slots and 2 literal slots -- CPU_ReadMem(4 bytes @ 0xE000EDFC) -- CPU_WriteMem(4 bytes @ 0xE000EDFC) -- CPU_ReadMem(4 bytes @ 0xE0001000) -- CPU_WriteMem(4 bytes @ 0xE0001000) -- CPU_ReadMem(4 bytes @ 0xE000ED88)
 -- CPU_WriteMem(4 bytes @ 0xE000ED88) -- CPU_ReadMem(4 bytes @ 0xE000ED88) -- CPU_WriteMem(4 bytes @ 0xE000ED88)CoreSight components:ROMTbl[0] @ E00FF000 -- CPU_ReadMem(16 bytes @ 0xE00FF000) -- CPU_ReadMem(16 bytes @ 0xE000EFF0) -- CPU_ReadMem(16 bytes @ 0xE000EFE0)ROMTbl[0][0]: E000E000, CID: B105E00D, PID: 001BB000 SCS -- CPU_ReadMem(16 bytes @ 0xE0001FF0) -- CPU_ReadMem(16 bytes @ 0xE0001FE0)ROMTbl[0][1]: E0001000, CID: B105E00D, PID: 001BB002 DWT -- CPU_ReadMem(16 bytes @ 0xE0002FF0)
 -- CPU_ReadMem(16 bytes @ 0xE0002FE0)ROMTbl[0][2]: E0002000, CID: B105E00D, PID: 000BB003 FPB -- CPU_ReadMem(16 bytes @ 0xE0000FF0) -- CPU_ReadMem(16 bytes @ 0xE0000FE0)ROMTbl[0][3]: E0000000, CID: B105E00D, PID: 001BB001 ITM -- CPU_ReadMem(16 bytes @ 0xE00FF010) -- CPU_ReadMem(16 bytes @ 0xE0040FF0) -- CPU_ReadMem(16 bytes @ 0xE0040FE0)ROMTbl[0][4]: E0040000, CID: B105900D, PID: 001BB923 TPIU-Lite -- CPU_ReadMem(16 bytes @ 0xE0041FF0) -- CPU_ReadMem(16 bytes @ 0xE0041FE0)
ROMTbl[0][5]: E0041000, CID: B105900D, PID: 101BB924 ETM-M3 ScanLen=9 NumDevices=2 aId[0]=0x3BA00477 aIrRead[0]=0 aScanLen[0]=0 aScanRead[0]=0 (0303ms, 0525ms total)
T6438 000:807 JLINK_JTAG_GetDeviceID(DeviceIndex = 0)  returns 0x3BA00477 (0000ms, 0525ms total)
T6438 000:807 JLINK_JTAG_GetDeviceInfo(DeviceIndex = 0)  returns 0x00 (0000ms, 0525ms total)
T6438 000:807 JLINK_JTAG_GetDeviceID(DeviceIndex = 1)  returns 0x6414041 (0000ms, 0525ms total)
T6438 000:807 JLINK_JTAG_GetDeviceInfo(DeviceIndex = 1)  returns 0x00 (0000ms, 0525ms total)
T6438 000:807 JLINK_GetDLLVersion()  returns 61601 (0000ms, 0525ms total)
T6438 000:807 JLINK_CORE_GetFound()  returns 0x30000FF (0000ms, 0525ms total)
T6438 000:807 JLINK_GetDebugInfo(0x100 = JLINKARM_ROM_TABLE_ADDR_INDEX) -- Value=0xE00FF000  returns 0x00 (0000ms, 0525ms total)
T6438 000:818 JLINK_GetDebugInfo(0x100 = JLINKARM_ROM_TABLE_ADDR_INDEX) -- Value=0xE00FF000  returns 0x00 (0000ms, 0525ms total)
T6438 000:818 JLINK_GetDebugInfo(0x101 = JLINKARM_DEBUG_INFO_ETM_ADDR_INDEX) -- Value=0xE0041000  returns 0x00 (0000ms, 0525ms total)
T6438 000:818 JLINK_GetDebugInfo(0x102 = JLINKARM_DEBUG_INFO_MTB_ADDR_INDEX) -- Value=0x00000000  returns 0x00 (0000ms, 0525ms total)
T6438 000:818 JLINK_GetDebugInfo(0x103 = JLINKARM_DEBUG_INFO_TPIU_ADDR_INDEX) -- Value=0xE0040000  returns 0x00 (0000ms, 0525ms total)
T6438 000:818 JLINK_GetDebugInfo(0x104 = JLINKARM_DEBUG_INFO_ITM_ADDR_INDEX) -- Value=0xE0000000  returns 0x00 (0000ms, 0525ms total)
T6438 000:818 JLINK_GetDebugInfo(0x105 = JLINKARM_DEBUG_INFO_DWT_ADDR_INDEX) -- Value=0xE0001000  returns 0x00 (0000ms, 0525ms total)
T6438 000:818 JLINK_GetDebugInfo(0x106 = JLINKARM_DEBUG_INFO_FPB_ADDR_INDEX) -- Value=0xE0002000  returns 0x00 (0000ms, 0525ms total)
T6438 000:818 JLINK_GetDebugInfo(0x107 = JLINKARM_DEBUG_INFO_NVIC_ADDR_INDEX) -- Value=0xE000E000  returns 0x00 (0000ms, 0525ms total)
T6438 000:818 JLINK_GetDebugInfo(0x10C = JLINKARM_DEBUG_INFO_DBG_ADDR_INDEX) -- Value=0xE000EDF0  returns 0x00 (0000ms, 0525ms total)
T6438 000:818 JLINK_ReadMemU32(0xE000ED00, 0x0001 Items, ...) -- CPU_ReadMem(4 bytes @ 0xE000ED00) - Data: 31 C2 1F 41  returns 0x01 (0002ms, 0527ms total)
T6438 000:820 JLINK_SetResetType(JLINKARM_CM3_RESET_TYPE_NORMAL)  returns JLINKARM_CM3_RESET_TYPE_NORMAL (0000ms, 0527ms total)
T6438 000:820 JLINK_Reset() -- CPU is running -- CPU_WriteMem(4 bytes @ 0xE000EDF0) -- CPU is running -- CPU_WriteMem(4 bytes @ 0xE000EDFC)Setting AIRCR.SYSRESETREQ -- CPU is running -- CPU_WriteMem(4 bytes @ 0xE000ED0C) -- CPU_ReadMem(4 bytes @ 0xE000ED0C) -- CPU_ReadMem(4 bytes @ 0xE000EDF0) -- CPU_ReadMem(4 bytes @ 0xE000EDF0) -- CPU_ReadMem(4 bytes @ 0xE000EDF0) -- CPU is running -- CPU_WriteMem(4 bytes @ 0xE000EDF0) -- CPU is running -- CPU_WriteMem(4 bytes @ 0xE000EDFC)
 -- CPU_ReadMem(4 bytes @ 0xE000EDF0) >0x80 JTAG> >0x40 JTAG> >0x30 JTAG> >0x40 JTAG> >0x50 JTAG> >0x40 JTAG> -- CPU_WriteMem(4 bytes @ 0xE000EDFC) -- CPU_WriteMem(4 bytes @ 0xE0001028) -- CPU_WriteMem(4 bytes @ 0xE0001038) -- CPU_WriteMem(4 bytes @ 0xE0001048) -- CPU_WriteMem(4 bytes @ 0xE0001058) -- CPU_WriteMem(4 bytes @ 0xE0002000) -- CPU_ReadMem(4 bytes @ 0xE000EDFC) -- CPU_ReadMem(4 bytes @ 0xE0001000) (0097ms, 0624ms total)
T6438 000:917 JLINK_Halt()  returns 0x00 (0000ms, 0624ms total)
T6438 000:917 JLINK_IsHalted()  returns TRUE (0000ms, 0624ms total)
T6438 000:917 JLINK_ReadMemU32(0xE000EDF0, 0x0001 Items, ...) -- CPU_ReadMem(4 bytes @ 0xE000EDF0) - Data: 03 00 03 00  returns 0x01 (0001ms, 0625ms total)
T6438 000:918 JLINK_WriteU32(0xE000EDF0, 0xA05F0003) -- CPU_WriteMem(4 bytes @ 0xE000EDF0)  returns 0x00 (0001ms, 0626ms total)
T6438 000:919 JLINK_WriteU32(0xE000EDFC, 0x01000000) -- CPU_WriteMem(4 bytes @ 0xE000EDFC)  returns 0x00 (0001ms, 0627ms total)
T6438 000:949 JLINK_GetHWStatus(...)  returns 0x00 (0002ms, 0629ms total)
T6438 000:984 JLINK_GetNumBPUnits(Type = 0xFFFFFF00)  returns 0x06 (0000ms, 0629ms total)
T6438 000:984 JLINK_GetNumBPUnits(Type = 0xF0)  returns 0x2000 (0000ms, 0629ms total)
T6438 000:984 JLINK_GetNumWPUnits()  returns 0x04 (0000ms, 0629ms total)
T6438 001:006 JLINK_GetSpeed()  returns 0x12C0 (0000ms, 0629ms total)
T6438 001:034 JLINK_ReadMemU32(0xE000E004, 0x0001 Items, ...) -- CPU_ReadMem(4 bytes @ 0xE000E004) - Data: 01 00 00 00  returns 0x01 (0002ms, 0631ms total)
T6438 001:036 JLINK_ReadMemU32(0xE000E004, 0x0001 Items, ...) -- CPU_ReadMem(4 bytes @ 0xE000E004) - Data: 01 00 00 00  returns 0x01 (0001ms, 0632ms total)
T6438 001:037 JLINK_WriteMem(0xE0001000, 0x001C Bytes, ...) - Data: 01 00 00 00 00 00 00 00 00 00 00 00 00 00 00 00 ... -- CPU_WriteMem(28 bytes @ 0xE0001000)  returns 0x1C (0002ms, 0634ms total)
T6438 001:039 JLINK_ReadMem (0xE0001000, 0x001C Bytes, ...) -- CPU_ReadMem(28 bytes @ 0xE0001000) - Data: 01 00 00 40 00 00 00 00 00 00 00 00 00 00 00 00 ...  returns 0x00 (0001ms, 0635ms total)
T6438 001:040 JLINK_Halt()  returns 0x00 (0000ms, 0635ms total)
T6438 001:040 JLINK_IsHalted()  returns TRUE (0000ms, 0635ms total)
T6438 001:045 JLINK_WriteMem(0x20000000, 0x0164 Bytes, ...) - Data: 00 BE 0A E0 0D 78 2D 06 68 40 08 24 40 00 00 D3 ... -- CPU_WriteMem(356 bytes @ 0x20000000)  returns 0x164 (0004ms, 0639ms total)
T6438 001:049 JLINK_WriteReg(R0, 0x08000000)  returns 0x00 (0000ms, 0639ms total)
T6438 001:049 JLINK_WriteReg(R1, 0x00B71B00)  returns 0x00 (0000ms, 0639ms total)
T6438 001:049 JLINK_WriteReg(R2, 0x00000001)  returns 0x00 (0000ms, 0639ms total)
T6438 001:049 JLINK_WriteReg(R3, 0x00000000)  returns 0x00 (0000ms, 0639ms total)
T6438 001:049 JLINK_WriteReg(R4, 0x00000000)  returns 0x00 (0000ms, 0639ms total)
T6438 001:049 JLINK_WriteReg(R5, 0x00000000)  returns 0x00 (0000ms, 0639ms total)
T6438 001:049 JLINK_WriteReg(R6, 0x00000000)  returns 0x00 (0000ms, 0639ms total)
T6438 001:049 JLINK_WriteReg(R7, 0x00000000)  returns 0x00 (0000ms, 0639ms total)
T6438 001:049 JLINK_WriteReg(R8, 0x00000000)  returns 0x00 (0000ms, 0639ms total)
T6438 001:049 JLINK_WriteReg(R9, 0x20000160)  returns 0x00 (0000ms, 0639ms total)
T6438 001:049 JLINK_WriteReg(R10, 0x00000000)  returns 0x00 (0000ms, 0639ms total)
T6438 001:049 JLINK_WriteReg(R11, 0x00000000)  returns 0x00 (0000ms, 0639ms total)
T6438 001:049 JLINK_WriteReg(R12, 0x00000000)  returns 0x00 (0000ms, 0639ms total)
T6438 001:049 JLINK_WriteReg(R13 (SP), 0x20000800)  returns 0x00 (0000ms, 0639ms total)
T6438 001:049 JLINK_WriteReg(R14, 0x20000001)  returns 0x00 (0000ms, 0639ms total)
T6438 001:049 JLINK_WriteReg(R15 (PC), 0x20000038)  returns 0x00 (0000ms, 0639ms total)
T6438 001:049 JLINK_WriteReg(XPSR, 0x01000000)  returns 0x00 (0000ms, 0639ms total)
T6438 001:049 JLINK_WriteReg(MSP, 0x20000800)  returns 0x00 (0000ms, 0639ms total)
T6438 001:049 JLINK_WriteReg(PSP, 0x20000800)  returns 0x00 (0000ms, 0639ms total)
T6438 001:049 JLINK_WriteReg(CFBP, 0x00000000)  returns 0x00 (0000ms, 0639ms total)
T6438 001:049 JLINK_SetBPEx(Addr = 0x20000000, Type = 0xFFFFFFF2) -- CPU_ReadMem(2 bytes @ 0x20000000)  returns 0x00000001 (0002ms, 0641ms total)
T6438 001:051 JLINK_Go() -- CPU_WriteMem(2 bytes @ 0x20000000) -- CPU_ReadMem(4 bytes @ 0xE0001000) -- CPU_WriteMem(4 bytes @ 0xE0002008) -- CPU_WriteMem(4 bytes @ 0xE000200C) -- CPU_WriteMem(4 bytes @ 0xE0002010) -- CPU_WriteMem(4 bytes @ 0xE0002014) -- CPU_WriteMem(4 bytes @ 0xE0002018) -- CPU_WriteMem(4 bytes @ 0xE000201C) -- CPU_WriteMem(4 bytes @ 0xE0001004) (0012ms, 0653ms total)
T6438 001:063 JLINK_IsHalted() -- CPU_ReadMem(2 bytes @ 0x20000000)  returns TRUE (0005ms, 0658ms total)
T6438 001:068 JLINK_ReadReg(R15 (PC))  returns 0x20000000 (0000ms, 0653ms total)
T6438 001:068 JLINK_ClrBPEx(BPHandle = 0x00000001)  returns 0x00 (0000ms, 0653ms total)
T6438 001:068 JLINK_ReadReg(R0)  returns 0x00000000 (0000ms, 0653ms total)
T6438 001:069 JLINK_WriteReg(R0, 0x08000000)  returns 0x00 (0000ms, 0653ms total)
T6438 001:069 JLINK_WriteReg(R1, 0x00000800)  returns 0x00 (0000ms, 0653ms total)
T6438 001:069 JLINK_WriteReg(R2, 0x000000FF)  returns 0x00 (0000ms, 0653ms total)
T6438 001:069 JLINK_WriteReg(R3, 0x00000000)  returns 0x00 (0000ms, 0653ms total)
T6438 001:069 JLINK_WriteReg(R4, 0x00000000)  returns 0x00 (0000ms, 0653ms total)
T6438 001:069 JLINK_WriteReg(R5, 0x00000000)  returns 0x00 (0000ms, 0653ms total)
T6438 001:069 JLINK_WriteReg(R6, 0x00000000)  returns 0x00 (0000ms, 0653ms total)
T6438 001:069 JLINK_WriteReg(R7, 0x00000000)  returns 0x00 (0000ms, 0653ms total)
T6438 001:069 JLINK_WriteReg(R8, 0x00000000)  returns 0x00 (0000ms, 0653ms total)
T6438 001:069 JLINK_WriteReg(R9, 0x20000160)  returns 0x00 (0000ms, 0653ms total)
T6438 001:069 JLINK_WriteReg(R10, 0x00000000)  returns 0x00 (0000ms, 0653ms total)
T6438 001:069 JLINK_WriteReg(R11, 0x00000000)  returns 0x00 (0000ms, 0653ms total)
T6438 001:069 JLINK_WriteReg(R12, 0x00000000)  returns 0x00 (0000ms, 0653ms total)
T6438 001:069 JLINK_WriteReg(R13 (SP), 0x20000800)  returns 0x00 (0000ms, 0653ms total)
T6438 001:069 JLINK_WriteReg(R14, 0x20000001)  returns 0x00 (0000ms, 0653ms total)
T6438 001:069 JLINK_WriteReg(R15 (PC), 0x20000020)  returns 0x00 (0000ms, 0653ms total)
T6438 001:069 JLINK_WriteReg(XPSR, 0x01000000)  returns 0x00 (0000ms, 0653ms total)
T6438 001:069 JLINK_WriteReg(MSP, 0x20000800)  returns 0x00 (0000ms, 0653ms total)
T6438 001:069 JLINK_WriteReg(PSP, 0x20000800)  returns 0x00 (0000ms, 0653ms total)
T6438 001:069 JLINK_WriteReg(CFBP, 0x00000000)  returns 0x00 (0000ms, 0653ms total)
T6438 001:069 JLINK_SetBPEx(Addr = 0x20000000, Type = 0xFFFFFFF2)  returns 0x00000002 (0000ms, 0653ms total)
T6438 001:069 JLINK_Go() -- CPU_ReadMem(4 bytes @ 0xE0001000) (0004ms, 0657ms total)
T6438 001:073 JLINK_IsHalted() -- CPU_ReadMem(2 bytes @ 0x20000000)  returns TRUE (0005ms, 0662ms total)
T6438 001:078 JLINK_ReadReg(R15 (PC))  returns 0x20000000 (0000ms, 0657ms total)
T6438 001:078 JLINK_ClrBPEx(BPHandle = 0x00000002)  returns 0x00 (0000ms, 0657ms total)
T6438 001:078 JLINK_ReadReg(R0)  returns 0x00000001 (0000ms, 0657ms total)
T6438 001:078 JLINK_WriteReg(R0, 0x08000000)  returns 0x00 (0000ms, 0657ms total)
T6438 001:078 JLINK_WriteReg(R1, 0x00000800)  returns 0x00 (0000ms, 0657ms total)
T6438 001:078 JLINK_WriteReg(R2, 0x000000FF)  returns 0x00 (0000ms, 0657ms total)
T6438 001:078 JLINK_WriteReg(R3, 0x00000000)  returns 0x00 (0000ms, 0657ms total)
T6438 001:078 JLINK_WriteReg(R4, 0x00000000)  returns 0x00 (0000ms, 0657ms total)
T6438 001:078 JLINK_WriteReg(R5, 0x00000000)  returns 0x00 (0000ms, 0657ms total)
T6438 001:078 JLINK_WriteReg(R6, 0x00000000)  returns 0x00 (0000ms, 0657ms total)
T6438 001:078 JLINK_WriteReg(R7, 0x00000000)  returns 0x00 (0000ms, 0657ms total)
T6438 001:078 JLINK_WriteReg(R8, 0x00000000)  returns 0x00 (0000ms, 0657ms total)
T6438 001:078 JLINK_WriteReg(R9, 0x20000160)  returns 0x00 (0000ms, 0657ms total)
T6438 001:078 JLINK_WriteReg(R10, 0x00000000)  returns 0x00 (0000ms, 0657ms total)
T6438 001:078 JLINK_WriteReg(R11, 0x00000000)  returns 0x00 (0000ms, 0657ms total)
T6438 001:078 JLINK_WriteReg(R12, 0x00000000)  returns 0x00 (0000ms, 0657ms total)
T6438 001:078 JLINK_WriteReg(R13 (SP), 0x20000800)  returns 0x00 (0000ms, 0657ms total)
T6438 001:078 JLINK_WriteReg(R14, 0x20000001)  returns 0x00 (0000ms, 0657ms total)
T6438 001:078 JLINK_WriteReg(R15 (PC), 0x200000B6)  returns 0x00 (0000ms, 0657ms total)
T6438 001:078 JLINK_WriteReg(XPSR, 0x01000000)  returns 0x00 (0000ms, 0657ms total)
T6438 001:078 JLINK_WriteReg(MSP, 0x20000800)  returns 0x00 (0000ms, 0657ms total)
T6438 001:078 JLINK_WriteReg(PSP, 0x20000800)  returns 0x00 (0000ms, 0657ms total)
T6438 001:078 JLINK_WriteReg(CFBP, 0x00000000)  returns 0x00 (0000ms, 0657ms total)
T6438 001:078 JLINK_SetBPEx(Addr = 0x20000000, Type = 0xFFFFFFF2)  returns 0x00000003 (0000ms, 0657ms total)
T6438 001:078 JLINK_Go() -- CPU_ReadMem(4 bytes @ 0xE0001000) (0004ms, 0661ms total)
T6438 001:082 JLINK_IsHalted()  returns FALSE (0001ms, 0662ms total)
T6438 001:152 JLINK_IsHalted() -- CPU_ReadMem(2 bytes @ 0x20000000)  returns TRUE (0005ms, 0666ms total)
T6438 001:157 JLINK_ReadReg(R15 (PC))  returns 0x20000000 (0000ms, 0661ms total)
T6438 001:157 JLINK_ClrBPEx(BPHandle = 0x00000003)  returns 0x00 (0000ms, 0661ms total)
T6438 001:157 JLINK_ReadReg(R0)  returns 0x00000000 (0000ms, 0661ms total)
T6438 001:159 JLINK_WriteReg(R0, 0x08000800)  returns 0x00 (0000ms, 0661ms total)
T6438 001:159 JLINK_WriteReg(R1, 0x00000800)  returns 0x00 (0000ms, 0661ms total)
T6438 001:159 JLINK_WriteReg(R2, 0x000000FF)  returns 0x00 (0000ms, 0661ms total)
T6438 001:159 JLINK_WriteReg(R3, 0x00000000)  returns 0x00 (0000ms, 0661ms total)
T6438 001:159 JLINK_WriteReg(R4, 0x00000000)  returns 0x00 (0000ms, 0661ms total)
T6438 001:159 JLINK_WriteReg(R5, 0x00000000)  returns 0x00 (0000ms, 0661ms total)
T6438 001:159 JLINK_WriteReg(R6, 0x00000000)  returns 0x00 (0000ms, 0661ms total)
T6438 001:159 JLINK_WriteReg(R7, 0x00000000)  returns 0x00 (0000ms, 0661ms total)
T6438 001:159 JLINK_WriteReg(R8, 0x00000000)  returns 0x00 (0000ms, 0661ms total)
T6438 001:159 JLINK_WriteReg(R9, 0x20000160)  returns 0x00 (0000ms, 0661ms total)
T6438 001:159 JLINK_WriteReg(R10, 0x00000000)  returns 0x00 (0000ms, 0661ms total)
T6438 001:159 JLINK_WriteReg(R11, 0x00000000)  returns 0x00 (0000ms, 0661ms total)
T6438 001:159 JLINK_WriteReg(R12, 0x00000000)  returns 0x00 (0000ms, 0661ms total)
T6438 001:159 JLINK_WriteReg(R13 (SP), 0x20000800)  returns 0x00 (0000ms, 0661ms total)
T6438 001:159 JLINK_WriteReg(R14, 0x20000001)  returns 0x00 (0000ms, 0661ms total)
T6438 001:159 JLINK_WriteReg(R15 (PC), 0x20000020)  returns 0x00 (0000ms, 0661ms total)
T6438 001:159 JLINK_WriteReg(XPSR, 0x01000000)  returns 0x00 (0000ms, 0661ms total)
T6438 001:159 JLINK_WriteReg(MSP, 0x20000800)  returns 0x00 (0000ms, 0661ms total)
T6438 001:159 JLINK_WriteReg(PSP, 0x20000800)  returns 0x00 (0000ms, 0661ms total)
T6438 001:159 JLINK_WriteReg(CFBP, 0x00000000)  returns 0x00 (0000ms, 0661ms total)
T6438 001:159 JLINK_SetBPEx(Addr = 0x20000000, Type = 0xFFFFFFF2)  returns 0x00000004 (0000ms, 0661ms total)
T6438 001:159 JLINK_Go() -- CPU_ReadMem(4 bytes @ 0xE0001000) (0005ms, 0666ms total)
T6438 001:164 JLINK_IsHalted() -- CPU_ReadMem(2 bytes @ 0x20000000)  returns TRUE (0004ms, 0670ms total)
T6438 001:169 JLINK_ReadReg(R15 (PC))  returns 0x20000000 (0000ms, 0666ms total)
T6438 001:169 JLINK_ClrBPEx(BPHandle = 0x00000004)  returns 0x00 (0000ms, 0666ms total)
T6438 001:169 JLINK_ReadReg(R0)  returns 0x00000001 (0000ms, 0666ms total)
T6438 001:169 JLINK_WriteReg(R0, 0x08000800)  returns 0x00 (0000ms, 0666ms total)
T6438 001:169 JLINK_WriteReg(R1, 0x00000800)  returns 0x00 (0000ms, 0666ms total)
T6438 001:169 JLINK_WriteReg(R2, 0x000000FF)  returns 0x00 (0000ms, 0666ms total)
T6438 001:169 JLINK_WriteReg(R3, 0x00000000)  returns 0x00 (0000ms, 0666ms total)
T6438 001:169 JLINK_WriteReg(R4, 0x00000000)  returns 0x00 (0000ms, 0666ms total)
T6438 001:169 JLINK_WriteReg(R5, 0x00000000)  returns 0x00 (0000ms, 0666ms total)
T6438 001:169 JLINK_WriteReg(R6, 0x00000000)  returns 0x00 (0000ms, 0666ms total)
T6438 001:169 JLINK_WriteReg(R7, 0x00000000)  returns 0x00 (0000ms, 0666ms total)
T6438 001:169 JLINK_WriteReg(R8, 0x00000000)  returns 0x00 (0000ms, 0666ms total)
T6438 001:169 JLINK_WriteReg(R9, 0x20000160)  returns 0x00 (0000ms, 0666ms total)
T6438 001:169 JLINK_WriteReg(R10, 0x00000000)  returns 0x00 (0000ms, 0666ms total)
T6438 001:169 JLINK_WriteReg(R11, 0x00000000)  returns 0x00 (0000ms, 0666ms total)
T6438 001:169 JLINK_WriteReg(R12, 0x00000000)  returns 0x00 (0000ms, 0666ms total)
T6438 001:169 JLINK_WriteReg(R13 (SP), 0x20000800)  returns 0x00 (0000ms, 0666ms total)
T6438 001:169 JLINK_WriteReg(R14, 0x20000001)  returns 0x00 (0000ms, 0666ms total)
T6438 001:169 JLINK_WriteReg(R15 (PC), 0x200000B6)  returns 0x00 (0000ms, 0666ms total)
T6438 001:169 JLINK_WriteReg(XPSR, 0x01000000)  returns 0x00 (0000ms, 0666ms total)
T6438 001:169 JLINK_WriteReg(MSP, 0x20000800)  returns 0x00 (0000ms, 0666ms total)
T6438 001:169 JLINK_WriteReg(PSP, 0x20000800)  returns 0x00 (0000ms, 0666ms total)
T6438 001:169 JLINK_WriteReg(CFBP, 0x00000000)  returns 0x00 (0000ms, 0666ms total)
T6438 001:169 JLINK_SetBPEx(Addr = 0x20000000, Type = 0xFFFFFFF2)  returns 0x00000005 (0000ms, 0666ms total)
T6438 001:169 JLINK_Go() -- CPU_ReadMem(4 bytes @ 0xE0001000) (0004ms, 0670ms total)
T6438 001:173 JLINK_IsHalted()  returns FALSE (0000ms, 0670ms total)
T6438 001:174 JLINK_IsHalted()  returns FALSE (0001ms, 0671ms total)
T6438 001:176 JLINK_IsHalted()  returns FALSE (0001ms, 0671ms total)
T6438 001:178 JLINK_IsHalted()  returns FALSE (0001ms, 0671ms total)
T6438 001:180 JLINK_IsHalted()  returns FALSE (0001ms, 0671ms total)
T6438 001:182 JLINK_IsHalted()  returns FALSE (0001ms, 0671ms total)
T6438 001:184 JLINK_IsHalted()  returns FALSE (0001ms, 0671ms total)
T6438 001:186 JLINK_IsHalted()  returns FALSE (0001ms, 0671ms total)
T6438 001:188 JLINK_IsHalted()  returns FALSE (0001ms, 0671ms total)
T6438 001:190 JLINK_IsHalted()  returns FALSE (0000ms, 0670ms total)
T6438 001:191 JLINK_IsHalted()  returns FALSE (0001ms, 0671ms total)
T6438 001:193 JLINK_IsHalted()  returns FALSE (0001ms, 0671ms total)
T6438 001:195 JLINK_IsHalted() -- CPU_ReadMem(2 bytes @ 0x20000000)  returns TRUE (0004ms, 0674ms total)
T6438 001:199 JLINK_ReadReg(R15 (PC))  returns 0x20000000 (0000ms, 0670ms total)
T6438 001:199 JLINK_ClrBPEx(BPHandle = 0x00000005)  returns 0x00 (0000ms, 0670ms total)
T6438 001:199 JLINK_ReadReg(R0)  returns 0x00000000 (0000ms, 0670ms total)
T6438 001:201 JLINK_WriteReg(R0, 0x08001000)  returns 0x00 (0000ms, 0670ms total)
T6438 001:201 JLINK_WriteReg(R1, 0x00000800)  returns 0x00 (0000ms, 0670ms total)
T6438 001:201 JLINK_WriteReg(R2, 0x000000FF)  returns 0x00 (0000ms, 0670ms total)
T6438 001:201 JLINK_WriteReg(R3, 0x00000000)  returns 0x00 (0000ms, 0670ms total)
T6438 001:201 JLINK_WriteReg(R4, 0x00000000)  returns 0x00 (0000ms, 0670ms total)
T6438 001:201 JLINK_WriteReg(R5, 0x00000000)  returns 0x00 (0000ms, 0670ms total)
T6438 001:201 JLINK_WriteReg(R6, 0x00000000)  returns 0x00 (0000ms, 0670ms total)
T6438 001:201 JLINK_WriteReg(R7, 0x00000000)  returns 0x00 (0000ms, 0670ms total)
T6438 001:201 JLINK_WriteReg(R8, 0x00000000)  returns 0x00 (0000ms, 0670ms total)
T6438 001:201 JLINK_WriteReg(R9, 0x20000160)  returns 0x00 (0000ms, 0670ms total)
T6438 001:201 JLINK_WriteReg(R10, 0x00000000)  returns 0x00 (0000ms, 0670ms total)
T6438 001:201 JLINK_WriteReg(R11, 0x00000000)  returns 0x00 (0000ms, 0670ms total)
T6438 001:201 JLINK_WriteReg(R12, 0x00000000)  returns 0x00 (0000ms, 0670ms total)
T6438 001:201 JLINK_WriteReg(R13 (SP), 0x20000800)  returns 0x00 (0000ms, 0670ms total)
T6438 001:201 JLINK_WriteReg(R14, 0x20000001)  returns 0x00 (0000ms, 0670ms total)
T6438 001:201 JLINK_WriteReg(R15 (PC), 0x20000020)  returns 0x00 (0000ms, 0670ms total)
T6438 001:201 JLINK_WriteReg(XPSR, 0x01000000)  returns 0x00 (0000ms, 0670ms total)
T6438 001:201 JLINK_WriteReg(MSP, 0x20000800)  returns 0x00 (0000ms, 0670ms total)
T6438 001:201 JLINK_WriteReg(PSP, 0x20000800)  returns 0x00 (0000ms, 0670ms total)
T6438 001:201 JLINK_WriteReg(CFBP, 0x00000000)  returns 0x00 (0000ms, 0670ms total)
T6438 001:201 JLINK_SetBPEx(Addr = 0x20000000, Type = 0xFFFFFFF2)  returns 0x00000006 (0000ms, 0670ms total)
T6438 001:201 JLINK_Go() -- CPU_ReadMem(4 bytes @ 0xE0001000) (0005ms, 0675ms total)
T6438 001:206 JLINK_IsHalted() -- CPU_ReadMem(2 bytes @ 0x20000000)  returns TRUE (0005ms, 0680ms total)
T6438 001:211 JLINK_ReadReg(R15 (PC))  returns 0x20000000 (0000ms, 0675ms total)
T6438 001:211 JLINK_ClrBPEx(BPHandle = 0x00000006)  returns 0x00 (0000ms, 0675ms total)
T6438 001:211 JLINK_ReadReg(R0)  returns 0x00000001 (0000ms, 0675ms total)
T6438 001:211 JLINK_WriteReg(R0, 0x08001000)  returns 0x00 (0000ms, 0675ms total)
T6438 001:211 JLINK_WriteReg(R1, 0x00000800)  returns 0x00 (0000ms, 0675ms total)
T6438 001:211 JLINK_WriteReg(R2, 0x000000FF)  returns 0x00 (0000ms, 0675ms total)
T6438 001:211 JLINK_WriteReg(R3, 0x00000000)  returns 0x00 (0000ms, 0675ms total)
T6438 001:211 JLINK_WriteReg(R4, 0x00000000)  returns 0x00 (0000ms, 0675ms total)
T6438 001:211 JLINK_WriteReg(R5, 0x00000000)  returns 0x00 (0000ms, 0675ms total)
T6438 001:211 JLINK_WriteReg(R6, 0x00000000)  returns 0x00 (0000ms, 0675ms total)
T6438 001:211 JLINK_WriteReg(R7, 0x00000000)  returns 0x00 (0000ms, 0675ms total)
T6438 001:211 JLINK_WriteReg(R8, 0x00000000)  returns 0x00 (0000ms, 0675ms total)
T6438 001:211 JLINK_WriteReg(R9, 0x20000160)  returns 0x00 (0000ms, 0675ms total)
T6438 001:211 JLINK_WriteReg(R10, 0x00000000)  returns 0x00 (0000ms, 0675ms total)
T6438 001:211 JLINK_WriteReg(R11, 0x00000000)  returns 0x00 (0000ms, 0675ms total)
T6438 001:211 JLINK_WriteReg(R12, 0x00000000)  returns 0x00 (0000ms, 0675ms total)
T6438 001:211 JLINK_WriteReg(R13 (SP), 0x20000800)  returns 0x00 (0000ms, 0675ms total)
T6438 001:211 JLINK_WriteReg(R14, 0x20000001)  returns 0x00 (0000ms, 0675ms total)
T6438 001:211 JLINK_WriteReg(R15 (PC), 0x200000B6)  returns 0x00 (0000ms, 0675ms total)
T6438 001:211 JLINK_WriteReg(XPSR, 0x01000000)  returns 0x00 (0000ms, 0675ms total)
T6438 001:211 JLINK_WriteReg(MSP, 0x20000800)  returns 0x00 (0000ms, 0675ms total)
T6438 001:211 JLINK_WriteReg(PSP, 0x20000800)  returns 0x00 (0000ms, 0675ms total)
T6438 001:211 JLINK_WriteReg(CFBP, 0x00000000)  returns 0x00 (0000ms, 0675ms total)
T6438 001:211 JLINK_SetBPEx(Addr = 0x20000000, Type = 0xFFFFFFF2)  returns 0x00000007 (0000ms, 0675ms total)
T6438 001:211 JLINK_Go() -- CPU_ReadMem(4 bytes @ 0xE0001000) (0005ms, 0680ms total)
T6438 001:216 JLINK_IsHalted()  returns FALSE (0001ms, 0681ms total)
T6438 001:218 JLINK_IsHalted()  returns FALSE (0001ms, 0681ms total)
T6438 001:220 JLINK_IsHalted()  returns FALSE (0001ms, 0681ms total)
T6438 001:222 JLINK_IsHalted()  returns FALSE (0001ms, 0681ms total)
T6438 001:224 JLINK_IsHalted()  returns FALSE (0001ms, 0681ms total)
T6438 001:226 JLINK_IsHalted()  returns FALSE (0001ms, 0681ms total)
T6438 001:231 JLINK_IsHalted()  returns FALSE (0001ms, 0681ms total)
T6438 001:233 JLINK_IsHalted()  returns FALSE (0001ms, 0681ms total)
T6438 001:235 JLINK_IsHalted()  returns FALSE (0001ms, 0681ms total)
T6438 001:237 JLINK_IsHalted()  returns FALSE (0001ms, 0681ms total)
T6438 001:239 JLINK_IsHalted() -- CPU_ReadMem(2 bytes @ 0x20000000)  returns TRUE (0005ms, 0685ms total)
T6438 001:244 JLINK_ReadReg(R15 (PC))  returns 0x20000000 (0000ms, 0680ms total)
T6438 001:244 JLINK_ClrBPEx(BPHandle = 0x00000007)  returns 0x00 (0000ms, 0680ms total)
T6438 001:244 JLINK_ReadReg(R0)  returns 0x00000000 (0000ms, 0680ms total)
T6438 001:246 JLINK_WriteReg(R0, 0x00000001)  returns 0x00 (0000ms, 0680ms total)
T6438 001:246 JLINK_WriteReg(R1, 0x00000800)  returns 0x00 (0000ms, 0680ms total)
T6438 001:246 JLINK_WriteReg(R2, 0x000000FF)  returns 0x00 (0000ms, 0680ms total)
T6438 001:246 JLINK_WriteReg(R3, 0x00000000)  returns 0x00 (0000ms, 0680ms total)
T6438 001:246 JLINK_WriteReg(R4, 0x00000000)  returns 0x00 (0000ms, 0680ms total)
T6438 001:246 JLINK_WriteReg(R5, 0x00000000)  returns 0x00 (0000ms, 0680ms total)
T6438 001:246 JLINK_WriteReg(R6, 0x00000000)  returns 0x00 (0000ms, 0680ms total)
T6438 001:246 JLINK_WriteReg(R7, 0x00000000)  returns 0x00 (0000ms, 0680ms total)
T6438 001:246 JLINK_WriteReg(R8, 0x00000000)  returns 0x00 (0000ms, 0680ms total)
T6438 001:246 JLINK_WriteReg(R9, 0x20000160)  returns 0x00 (0000ms, 0680ms total)
T6438 001:246 JLINK_WriteReg(R10, 0x00000000)  returns 0x00 (0000ms, 0680ms total)
T6438 001:246 JLINK_WriteReg(R11, 0x00000000)  returns 0x00 (0000ms, 0680ms total)
T6438 001:246 JLINK_WriteReg(R12, 0x00000000)  returns 0x00 (0000ms, 0680ms total)
T6438 001:246 JLINK_WriteReg(R13 (SP), 0x20000800)  returns 0x00 (0000ms, 0680ms total)
T6438 001:246 JLINK_WriteReg(R14, 0x20000001)  returns 0x00 (0000ms, 0680ms total)
T6438 001:246 JLINK_WriteReg(R15 (PC), 0x2000006A)  returns 0x00 (0000ms, 0680ms total)
T6438 001:246 JLINK_WriteReg(XPSR, 0x01000000)  returns 0x00 (0000ms, 0680ms total)
T6438 001:246 JLINK_WriteReg(MSP, 0x20000800)  returns 0x00 (0000ms, 0680ms total)
T6438 001:246 JLINK_WriteReg(PSP, 0x20000800)  returns 0x00 (0000ms, 0680ms total)
T6438 001:246 JLINK_WriteReg(CFBP, 0x00000000)  returns 0x00 (0000ms, 0680ms total)
T6438 001:246 JLINK_SetBPEx(Addr = 0x20000000, Type = 0xFFFFFFF2)  returns 0x00000008 (0000ms, 0680ms total)
T6438 001:246 JLINK_Go() -- CPU_ReadMem(4 bytes @ 0xE0001000) (0005ms, 0685ms total)
T6438 001:251 JLINK_IsHalted() -- CPU_ReadMem(2 bytes @ 0x20000000)  returns TRUE (0005ms, 0690ms total)
T6438 001:256 JLINK_ReadReg(R15 (PC))  returns 0x20000000 (0000ms, 0685ms total)
T6438 001:256 JLINK_ClrBPEx(BPHandle = 0x00000008)  returns 0x00 (0000ms, 0685ms total)
T6438 001:256 JLINK_ReadReg(R0)  returns 0x00000000 (0000ms, 0685ms total)
T6438 001:359 JLINK_WriteMem(0x20000000, 0x0164 Bytes, ...) - Data: 00 BE 0A E0 0D 78 2D 06 68 40 08 24 40 00 00 D3 ... -- CPU_WriteMem(356 bytes @ 0x20000000)  returns 0x164 (0003ms, 0688ms total)
T6438 001:362 JLINK_WriteReg(R0, 0x08000000)  returns 0x00 (0000ms, 0688ms total)
T6438 001:362 JLINK_WriteReg(R1, 0x00B71B00)  returns 0x00 (0000ms, 0688ms total)
T6438 001:362 JLINK_WriteReg(R2, 0x00000002)  returns 0x00 (0000ms, 0688ms total)
T6438 001:362 JLINK_WriteReg(R3, 0x00000000)  returns 0x00 (0000ms, 0688ms total)
T6438 001:362 JLINK_WriteReg(R4, 0x00000000)  returns 0x00 (0000ms, 0688ms total)
T6438 001:362 JLINK_WriteReg(R5, 0x00000000)  returns 0x00 (0000ms, 0688ms total)
T6438 001:362 JLINK_WriteReg(R6, 0x00000000)  returns 0x00 (0000ms, 0688ms total)
T6438 001:362 JLINK_WriteReg(R7, 0x00000000)  returns 0x00 (0000ms, 0688ms total)
T6438 001:362 JLINK_WriteReg(R8, 0x00000000)  returns 0x00 (0000ms, 0688ms total)
T6438 001:362 JLINK_WriteReg(R9, 0x20000160)  returns 0x00 (0000ms, 0688ms total)
T6438 001:362 JLINK_WriteReg(R10, 0x00000000)  returns 0x00 (0000ms, 0688ms total)
T6438 001:362 JLINK_WriteReg(R11, 0x00000000)  returns 0x00 (0000ms, 0688ms total)
T6438 001:362 JLINK_WriteReg(R12, 0x00000000)  returns 0x00 (0000ms, 0688ms total)
T6438 001:362 JLINK_WriteReg(R13 (SP), 0x20000800)  returns 0x00 (0000ms, 0688ms total)
T6438 001:362 JLINK_WriteReg(R14, 0x20000001)  returns 0x00 (0000ms, 0688ms total)
T6438 001:362 JLINK_WriteReg(R15 (PC), 0x20000038)  returns 0x00 (0000ms, 0688ms total)
T6438 001:362 JLINK_WriteReg(XPSR, 0x01000000)  returns 0x00 (0000ms, 0688ms total)
T6438 001:362 JLINK_WriteReg(MSP, 0x20000800)  returns 0x00 (0000ms, 0688ms total)
T6438 001:362 JLINK_WriteReg(PSP, 0x20000800)  returns 0x00 (0000ms, 0688ms total)
T6438 001:362 JLINK_WriteReg(CFBP, 0x00000000)  returns 0x00 (0000ms, 0688ms total)
T6438 001:362 JLINK_SetBPEx(Addr = 0x20000000, Type = 0xFFFFFFF2) -- CPU_ReadMem(2 bytes @ 0x20000000)  returns 0x00000009 (0002ms, 0690ms total)
T6438 001:364 JLINK_Go() -- CPU_WriteMem(2 bytes @ 0x20000000) -- CPU_ReadMem(4 bytes @ 0xE0001000) (0005ms, 0695ms total)
T6438 001:369 JLINK_IsHalted() -- CPU_ReadMem(2 bytes @ 0x20000000)  returns TRUE (0005ms, 0700ms total)
T6438 001:374 JLINK_ReadReg(R15 (PC))  returns 0x20000000 (0000ms, 0695ms total)
T6438 001:374 JLINK_ClrBPEx(BPHandle = 0x00000009)  returns 0x00 (0000ms, 0695ms total)
T6438 001:374 JLINK_ReadReg(R0)  returns 0x00000000 (0000ms, 0695ms total)
T6438 001:382 JLINK_WriteMem(0x20000164, 0x0400 Bytes, ...) - Data: 00 04 00 20 CF 01 00 08 79 02 00 08 7B 02 00 08 ... -- CPU_WriteMem(1024 bytes @ 0x20000164)  returns 0x400 (0009ms, 0704ms total)
T6438 001:391 JLINK_WriteReg(R0, 0x08000000)  returns 0x00 (0000ms, 0704ms total)
T6438 001:391 JLINK_WriteReg(R1, 0x00000400)  returns 0x00 (0000ms, 0704ms total)
T6438 001:391 JLINK_WriteReg(R2, 0x20000164)  returns 0x00 (0000ms, 0704ms total)
T6438 001:391 JLINK_WriteReg(R3, 0x00000000)  returns 0x00 (0000ms, 0704ms total)
T6438 001:391 JLINK_WriteReg(R4, 0x00000000)  returns 0x00 (0000ms, 0704ms total)
T6438 001:391 JLINK_WriteReg(R5, 0x00000000)  returns 0x00 (0000ms, 0704ms total)
T6438 001:391 JLINK_WriteReg(R6, 0x00000000)  returns 0x00 (0000ms, 0704ms total)
T6438 001:391 JLINK_WriteReg(R7, 0x00000000)  returns 0x00 (0000ms, 0704ms total)
T6438 001:391 JLINK_WriteReg(R8, 0x00000000)  returns 0x00 (0000ms, 0704ms total)
T6438 001:391 JLINK_WriteReg(R9, 0x20000160)  returns 0x00 (0000ms, 0704ms total)
T6438 001:391 JLINK_WriteReg(R10, 0x00000000)  returns 0x00 (0000ms, 0704ms total)
T6438 001:391 JLINK_WriteReg(R11, 0x00000000)  returns 0x00 (0000ms, 0704ms total)
T6438 001:391 JLINK_WriteReg(R12, 0x00000000)  returns 0x00 (0000ms, 0704ms total)
T6438 001:391 JLINK_WriteReg(R13 (SP), 0x20000800)  returns 0x00 (0000ms, 0704ms total)
T6438 001:391 JLINK_WriteReg(R14, 0x20000001)  returns 0x00 (0000ms, 0704ms total)
T6438 001:391 JLINK_WriteReg(R15 (PC), 0x200000F4)  returns 0x00 (0000ms, 0704ms total)
T6438 001:391 JLINK_WriteReg(XPSR, 0x01000000)  returns 0x00 (0000ms, 0704ms total)
T6438 001:391 JLINK_WriteReg(MSP, 0x20000800)  returns 0x00 (0000ms, 0704ms total)
T6438 001:391 JLINK_WriteReg(PSP, 0x20000800)  returns 0x00 (0000ms, 0704ms total)
T6438 001:391 JLINK_WriteReg(CFBP, 0x00000000)  returns 0x00 (0000ms, 0704ms total)
T6438 001:391 JLINK_SetBPEx(Addr = 0x20000000, Type = 0xFFFFFFF2)  returns 0x0000000A (0000ms, 0704ms total)
T6438 001:391 JLINK_Go() -- CPU_ReadMem(4 bytes @ 0xE0001000) (0004ms, 0708ms total)
T6438 001:395 JLINK_IsHalted()  returns FALSE (0001ms, 0709ms total)
T6438 001:406 JLINK_IsHalted()  returns FALSE (0001ms, 0709ms total)
T6438 001:408 JLINK_IsHalted()  returns FALSE (0001ms, 0709ms total)
T6438 001:410 JLINK_IsHalted()  returns FALSE (0001ms, 0709ms total)
T6438 001:412 JLINK_IsHalted()  returns FALSE (0001ms, 0709ms total)
T6438 001:414 JLINK_IsHalted()  returns FALSE (0001ms, 0709ms total)
T6438 001:416 JLINK_IsHalted()  returns FALSE (0001ms, 0709ms total)
T6438 001:418 JLINK_IsHalted()  returns FALSE (0001ms, 0709ms total)
T6438 001:420 JLINK_IsHalted()  returns FALSE (0001ms, 0709ms total)
T6438 001:422 JLINK_IsHalted()  returns FALSE (0000ms, 0708ms total)
T6438 001:423 JLINK_IsHalted()  returns FALSE (0001ms, 0709ms total)
T6438 001:425 JLINK_IsHalted()  returns FALSE (0000ms, 0708ms total)
T6438 001:426 JLINK_IsHalted() -- CPU_ReadMem(2 bytes @ 0x20000000)  returns TRUE (0004ms, 0712ms total)
T6438 001:430 JLINK_ReadReg(R15 (PC))  returns 0x20000000 (0000ms, 0708ms total)
T6438 001:430 JLINK_ClrBPEx(BPHandle = 0x0000000A)  returns 0x00 (0000ms, 0708ms total)
T6438 001:430 JLINK_ReadReg(R0)  returns 0x00000000 (0000ms, 0708ms total)
T6438 001:432 JLINK_WriteMem(0x20000164, 0x0400 Bytes, ...) - Data: E0 22 11 61 C1 08 21 4A 11 60 11 46 09 68 4F F4 ... -- CPU_WriteMem(1024 bytes @ 0x20000164)  returns 0x400 (0009ms, 0717ms total)
T6438 001:441 JLINK_WriteReg(R0, 0x08000400)  returns 0x00 (0000ms, 0717ms total)
T6438 001:441 JLINK_WriteReg(R1, 0x00000400)  returns 0x00 (0000ms, 0717ms total)
T6438 001:441 JLINK_WriteReg(R2, 0x20000164)  returns 0x00 (0000ms, 0717ms total)
T6438 001:441 JLINK_WriteReg(R3, 0x00000000)  returns 0x00 (0000ms, 0717ms total)
T6438 001:441 JLINK_WriteReg(R4, 0x00000000)  returns 0x00 (0000ms, 0717ms total)
T6438 001:441 JLINK_WriteReg(R5, 0x00000000)  returns 0x00 (0000ms, 0717ms total)
T6438 001:441 JLINK_WriteReg(R6, 0x00000000)  returns 0x00 (0000ms, 0717ms total)
T6438 001:441 JLINK_WriteReg(R7, 0x00000000)  returns 0x00 (0000ms, 0717ms total)
T6438 001:441 JLINK_WriteReg(R8, 0x00000000)  returns 0x00 (0000ms, 0717ms total)
T6438 001:441 JLINK_WriteReg(R9, 0x20000160)  returns 0x00 (0000ms, 0717ms total)
T6438 001:441 JLINK_WriteReg(R10, 0x00000000)  returns 0x00 (0000ms, 0717ms total)
T6438 001:441 JLINK_WriteReg(R11, 0x00000000)  returns 0x00 (0000ms, 0717ms total)
T6438 001:441 JLINK_WriteReg(R12, 0x00000000)  returns 0x00 (0000ms, 0717ms total)
T6438 001:441 JLINK_WriteReg(R13 (SP), 0x20000800)  returns 0x00 (0000ms, 0717ms total)
T6438 001:441 JLINK_WriteReg(R14, 0x20000001)  returns 0x00 (0000ms, 0717ms total)
T6438 001:441 JLINK_WriteReg(R15 (PC), 0x200000F4)  returns 0x00 (0000ms, 0717ms total)
T6438 001:441 JLINK_WriteReg(XPSR, 0x01000000)  returns 0x00 (0000ms, 0717ms total)
T6438 001:441 JLINK_WriteReg(MSP, 0x20000800)  returns 0x00 (0000ms, 0717ms total)
T6438 001:441 JLINK_WriteReg(PSP, 0x20000800)  returns 0x00 (0000ms, 0717ms total)
T6438 001:441 JLINK_WriteReg(CFBP, 0x00000000)  returns 0x00 (0000ms, 0717ms total)
T6438 001:441 JLINK_SetBPEx(Addr = 0x20000000, Type = 0xFFFFFFF2)  returns 0x0000000B (0000ms, 0717ms total)
T6438 001:441 JLINK_Go() -- CPU_ReadMem(4 bytes @ 0xE0001000) (0005ms, 0722ms total)
T6438 001:446 JLINK_IsHalted()  returns FALSE (0001ms, 0723ms total)
T6438 001:448 JLINK_IsHalted()  returns FALSE (0001ms, 0723ms total)
T6438 001:450 JLINK_IsHalted()  returns FALSE (0001ms, 0723ms total)
T6438 001:452 JLINK_IsHalted()  returns FALSE (0001ms, 0723ms total)
T6438 001:454 JLINK_IsHalted()  returns FALSE (0001ms, 0723ms total)
T6438 001:456 JLINK_IsHalted()  returns FALSE (0001ms, 0723ms total)
T6438 001:458 JLINK_IsHalted()  returns FALSE (0001ms, 0723ms total)
T6438 001:460 JLINK_IsHalted()  returns FALSE (0001ms, 0723ms total)
T6438 001:462 JLINK_IsHalted()  returns FALSE (0000ms, 0722ms total)
T6438 001:463 JLINK_IsHalted()  returns FALSE (0000ms, 0722ms total)
T6438 001:464 JLINK_IsHalted()  returns FALSE (0001ms, 0723ms total)
T6438 001:466 JLINK_IsHalted()  returns FALSE (0001ms, 0723ms total)
T6438 001:468 JLINK_IsHalted()  returns FALSE (0001ms, 0723ms total)
T6438 001:470 JLINK_IsHalted()  returns FALSE (0001ms, 0723ms total)
T6438 001:472 JLINK_IsHalted()  returns FALSE (0001ms, 0723ms total)
T6438 001:474 JLINK_IsHalted()  returns FALSE (0001ms, 0723ms total)
T6438 001:495 JLINK_IsHalted() -- CPU_ReadMem(2 bytes @ 0x20000000)  returns TRUE (0005ms, 0727ms total)
T6438 001:500 JLINK_ReadReg(R15 (PC))  returns 0x20000000 (0000ms, 0722ms total)
T6438 001:500 JLINK_ClrBPEx(BPHandle = 0x0000000B)  returns 0x00 (0000ms, 0722ms total)
T6438 001:500 JLINK_ReadReg(R0)  returns 0x00000000 (0000ms, 0722ms total)
T6438 001:501 JLINK_WriteMem(0x20000164, 0x0400 Bytes, ...) - Data: ED FA 0A E0 AE 48 84 42 07 D1 01 21 80 15 00 F0 ... -- CPU_WriteMem(1024 bytes @ 0x20000164)  returns 0x400 (0009ms, 0731ms total)
T6438 001:510 JLINK_WriteReg(R0, 0x08000800)  returns 0x00 (0000ms, 0731ms total)
T6438 001:510 JLINK_WriteReg(R1, 0x00000400)  returns 0x00 (0000ms, 0731ms total)
T6438 001:510 JLINK_WriteReg(R2, 0x20000164)  returns 0x00 (0000ms, 0731ms total)
T6438 001:510 JLINK_WriteReg(R3, 0x00000000)  returns 0x00 (0000ms, 0731ms total)
T6438 001:510 JLINK_WriteReg(R4, 0x00000000)  returns 0x00 (0000ms, 0731ms total)
T6438 001:510 JLINK_WriteReg(R5, 0x00000000)  returns 0x00 (0000ms, 0731ms total)
T6438 001:510 JLINK_WriteReg(R6, 0x00000000)  returns 0x00 (0000ms, 0731ms total)
T6438 001:510 JLINK_WriteReg(R7, 0x00000000)  returns 0x00 (0000ms, 0731ms total)
T6438 001:510 JLINK_WriteReg(R8, 0x00000000)  returns 0x00 (0000ms, 0731ms total)
T6438 001:510 JLINK_WriteReg(R9, 0x20000160)  returns 0x00 (0000ms, 0731ms total)
T6438 001:510 JLINK_WriteReg(R10, 0x00000000)  returns 0x00 (0000ms, 0731ms total)
T6438 001:510 JLINK_WriteReg(R11, 0x00000000)  returns 0x00 (0000ms, 0731ms total)
T6438 001:510 JLINK_WriteReg(R12, 0x00000000)  returns 0x00 (0000ms, 0731ms total)
T6438 001:510 JLINK_WriteReg(R13 (SP), 0x20000800)  returns 0x00 (0000ms, 0731ms total)
T6438 001:510 JLINK_WriteReg(R14, 0x20000001)  returns 0x00 (0000ms, 0731ms total)
T6438 001:510 JLINK_WriteReg(R15 (PC), 0x200000F4)  returns 0x00 (0000ms, 0731ms total)
T6438 001:510 JLINK_WriteReg(XPSR, 0x01000000)  returns 0x00 (0000ms, 0731ms total)
T6438 001:510 JLINK_WriteReg(MSP, 0x20000800)  returns 0x00 (0000ms, 0731ms total)
T6438 001:510 JLINK_WriteReg(PSP, 0x20000800)  returns 0x00 (0000ms, 0731ms total)
T6438 001:510 JLINK_WriteReg(CFBP, 0x00000000)  returns 0x00 (0000ms, 0731ms total)
T6438 001:510 JLINK_SetBPEx(Addr = 0x20000000, Type = 0xFFFFFFF2)  returns 0x0000000C (0001ms, 0732ms total)
T6438 001:511 JLINK_Go() -- CPU_ReadMem(4 bytes @ 0xE0001000) (0004ms, 0736ms total)
T6438 001:515 JLINK_IsHalted()  returns FALSE (0001ms, 0737ms total)
T6438 001:534 JLINK_IsHalted()  returns FALSE (0001ms, 0737ms total)
T6438 001:537 JLINK_IsHalted()  returns FALSE (0001ms, 0737ms total)
T6438 001:543 JLINK_IsHalted()  returns FALSE (0001ms, 0737ms total)
T6438 001:545 JLINK_IsHalted()  returns FALSE (0001ms, 0737ms total)
T6438 001:547 JLINK_IsHalted() -- CPU_ReadMem(2 bytes @ 0x20000000)  returns TRUE (0005ms, 0741ms total)
T6438 001:552 JLINK_ReadReg(R15 (PC))  returns 0x20000000 (0000ms, 0736ms total)
T6438 001:552 JLINK_ClrBPEx(BPHandle = 0x0000000C)  returns 0x00 (0000ms, 0736ms total)
T6438 001:552 JLINK_ReadReg(R0)  returns 0x00000000 (0000ms, 0736ms total)
T6438 001:554 JLINK_WriteMem(0x20000164, 0x0400 Bytes, ...) - Data: 50 68 20 F0 03 00 08 43 50 60 70 47 8F 48 40 68 ... -- CPU_WriteMem(1024 bytes @ 0x20000164)  returns 0x400 (0008ms, 0744ms total)
T6438 001:562 JLINK_WriteReg(R0, 0x08000C00)  returns 0x00 (0001ms, 0745ms total)
T6438 001:563 JLINK_WriteReg(R1, 0x00000400)  returns 0x00 (0000ms, 0745ms total)
T6438 001:563 JLINK_WriteReg(R2, 0x20000164)  returns 0x00 (0000ms, 0745ms total)
T6438 001:563 JLINK_WriteReg(R3, 0x00000000)  returns 0x00 (0000ms, 0745ms total)
T6438 001:563 JLINK_WriteReg(R4, 0x00000000)  returns 0x00 (0000ms, 0745ms total)
T6438 001:563 JLINK_WriteReg(R5, 0x00000000)  returns 0x00 (0000ms, 0745ms total)
T6438 001:563 JLINK_WriteReg(R6, 0x00000000)  returns 0x00 (0000ms, 0745ms total)
T6438 001:563 JLINK_WriteReg(R7, 0x00000000)  returns 0x00 (0000ms, 0745ms total)
T6438 001:563 JLINK_WriteReg(R8, 0x00000000)  returns 0x00 (0000ms, 0745ms total)
T6438 001:563 JLINK_WriteReg(R9, 0x20000160)  returns 0x00 (0000ms, 0745ms total)
T6438 001:563 JLINK_WriteReg(R10, 0x00000000)  returns 0x00 (0000ms, 0745ms total)
T6438 001:563 JLINK_WriteReg(R11, 0x00000000)  returns 0x00 (0000ms, 0745ms total)
T6438 001:563 JLINK_WriteReg(R12, 0x00000000)  returns 0x00 (0000ms, 0745ms total)
T6438 001:563 JLINK_WriteReg(R13 (SP), 0x20000800)  returns 0x00 (0000ms, 0745ms total)
T6438 001:563 JLINK_WriteReg(R14, 0x20000001)  returns 0x00 (0000ms, 0745ms total)
T6438 001:563 JLINK_WriteReg(R15 (PC), 0x200000F4)  returns 0x00 (0000ms, 0745ms total)
T6438 001:563 JLINK_WriteReg(XPSR, 0x01000000)  returns 0x00 (0000ms, 0745ms total)
T6438 001:563 JLINK_WriteReg(MSP, 0x20000800)  returns 0x00 (0000ms, 0745ms total)
T6438 001:563 JLINK_WriteReg(PSP, 0x20000800)  returns 0x00 (0000ms, 0745ms total)
T6438 001:563 JLINK_WriteReg(CFBP, 0x00000000)  returns 0x00 (0000ms, 0745ms total)
T6438 001:563 JLINK_SetBPEx(Addr = 0x20000000, Type = 0xFFFFFFF2)  returns 0x0000000D (0000ms, 0745ms total)
T6438 001:563 JLINK_Go() -- CPU_ReadMem(4 bytes @ 0xE0001000) (0004ms, 0749ms total)
T6438 001:567 JLINK_IsHalted()  returns FALSE (0001ms, 0750ms total)
T6438 001:569 JLINK_IsHalted()  returns FALSE (0000ms, 0749ms total)
T6438 001:570 JLINK_IsHalted()  returns FALSE (0000ms, 0749ms total)
T6438 001:571 JLINK_IsHalted()  returns FALSE (0000ms, 0749ms total)
T6438 001:572 JLINK_IsHalted()  returns FALSE (0000ms, 0749ms total)
T6438 001:573 JLINK_IsHalted()  returns FALSE (0000ms, 0749ms total)
T6438 001:574 JLINK_IsHalted()  returns FALSE (0000ms, 0749ms total)
T6438 001:575 JLINK_IsHalted()  returns FALSE (0000ms, 0749ms total)
T6438 001:576 JLINK_IsHalted()  returns FALSE (0000ms, 0749ms total)
T6438 001:577 JLINK_IsHalted()  returns FALSE (0001ms, 0750ms total)
T6438 001:579 JLINK_IsHalted()  returns FALSE (0000ms, 0750ms total)
T6438 001:580 JLINK_IsHalted()  returns FALSE (0000ms, 0750ms total)
T6438 001:581 JLINK_IsHalted()  returns FALSE (0000ms, 0750ms total)
T6438 001:582 JLINK_IsHalted()  returns FALSE (0000ms, 0750ms total)
T6438 001:583 JLINK_IsHalted()  returns FALSE (0000ms, 0750ms total)
T6438 001:587 JLINK_IsHalted()  returns FALSE (0001ms, 0751ms total)
T6438 001:589 JLINK_IsHalted()  returns FALSE (0001ms, 0751ms total)
T6438 001:591 JLINK_IsHalted()  returns FALSE (0001ms, 0751ms total)
T6438 001:593 JLINK_IsHalted()  returns FALSE (0000ms, 0750ms total)
T6438 001:594 JLINK_IsHalted()  returns FALSE (0000ms, 0750ms total)
T6438 001:595 JLINK_IsHalted()  returns FALSE (0001ms, 0751ms total)
T6438 001:597 JLINK_IsHalted()  returns FALSE (0000ms, 0750ms total)
T6438 001:598 JLINK_IsHalted() -- CPU_ReadMem(2 bytes @ 0x20000000)  returns TRUE (0004ms, 0754ms total)
T6438 001:602 JLINK_ReadReg(R15 (PC))  returns 0x20000000 (0000ms, 0750ms total)
T6438 001:602 JLINK_ClrBPEx(BPHandle = 0x0000000D)  returns 0x00 (0000ms, 0750ms total)
T6438 001:602 JLINK_ReadReg(R0)  returns 0x00000000 (0000ms, 0750ms total)
T6438 001:604 JLINK_WriteMem(0x20000164, 0x0400 Bytes, ...) - Data: 10 BD 00 21 01 80 41 80 81 80 C1 80 70 47 21 B1 ... -- CPU_WriteMem(1024 bytes @ 0x20000164)  returns 0x400 (0009ms, 0759ms total)
T6438 001:613 JLINK_WriteReg(R0, 0x08001000)  returns 0x00 (0000ms, 0759ms total)
T6438 001:613 JLINK_WriteReg(R1, 0x00000400)  returns 0x00 (0000ms, 0759ms total)
T6438 001:613 JLINK_WriteReg(R2, 0x20000164)  returns 0x00 (0000ms, 0759ms total)
T6438 001:613 JLINK_WriteReg(R3, 0x00000000)  returns 0x00 (0000ms, 0759ms total)
T6438 001:613 JLINK_WriteReg(R4, 0x00000000)  returns 0x00 (0000ms, 0759ms total)
T6438 001:613 JLINK_WriteReg(R5, 0x00000000)  returns 0x00 (0000ms, 0759ms total)
T6438 001:613 JLINK_WriteReg(R6, 0x00000000)  returns 0x00 (0000ms, 0759ms total)
T6438 001:613 JLINK_WriteReg(R7, 0x00000000)  returns 0x00 (0000ms, 0759ms total)
T6438 001:613 JLINK_WriteReg(R8, 0x00000000)  returns 0x00 (0000ms, 0759ms total)
T6438 001:613 JLINK_WriteReg(R9, 0x20000160)  returns 0x00 (0000ms, 0759ms total)
T6438 001:613 JLINK_WriteReg(R10, 0x00000000)  returns 0x00 (0000ms, 0759ms total)
T6438 001:613 JLINK_WriteReg(R11, 0x00000000)  returns 0x00 (0000ms, 0759ms total)
T6438 001:613 JLINK_WriteReg(R12, 0x00000000)  returns 0x00 (0000ms, 0759ms total)
T6438 001:613 JLINK_WriteReg(R13 (SP), 0x20000800)  returns 0x00 (0000ms, 0759ms total)
T6438 001:613 JLINK_WriteReg(R14, 0x20000001)  returns 0x00 (0000ms, 0759ms total)
T6438 001:613 JLINK_WriteReg(R15 (PC), 0x200000F4)  returns 0x00 (0000ms, 0759ms total)
T6438 001:613 JLINK_WriteReg(XPSR, 0x01000000)  returns 0x00 (0000ms, 0759ms total)
T6438 001:613 JLINK_WriteReg(MSP, 0x20000800)  returns 0x00 (0000ms, 0759ms total)
T6438 001:613 JLINK_WriteReg(PSP, 0x20000800)  returns 0x00 (0000ms, 0759ms total)
T6438 001:613 JLINK_WriteReg(CFBP, 0x00000000)  returns 0x00 (0000ms, 0759ms total)
T6438 001:613 JLINK_SetBPEx(Addr = 0x20000000, Type = 0xFFFFFFF2)  returns 0x0000000E (0000ms, 0759ms total)
T6438 001:613 JLINK_Go() -- CPU_ReadMem(4 bytes @ 0xE0001000) (0005ms, 0764ms total)
T6438 001:618 JLINK_IsHalted()  returns FALSE (0001ms, 0765ms total)
T6438 001:620 JLINK_IsHalted()  returns FALSE (0001ms, 0765ms total)
T6438 001:622 JLINK_IsHalted()  returns FALSE (0001ms, 0765ms total)
T6438 001:624 JLINK_IsHalted()  returns FALSE (0001ms, 0765ms total)
T6438 001:626 JLINK_IsHalted()  returns FALSE (0001ms, 0765ms total)
T6438 001:628 JLINK_IsHalted()  returns FALSE (0001ms, 0765ms total)
T6438 001:630 JLINK_IsHalted()  returns FALSE (0001ms, 0765ms total)
T6438 001:632 JLINK_IsHalted()  returns FALSE (0002ms, 0766ms total)
T6438 001:635 JLINK_IsHalted()  returns FALSE (0001ms, 0765ms total)
T6438 001:637 JLINK_IsHalted()  returns FALSE (0001ms, 0765ms total)
T6438 001:639 JLINK_IsHalted()  returns FALSE (0001ms, 0765ms total)
T6438 001:641 JLINK_IsHalted()  returns FALSE (0001ms, 0765ms total)
T6438 001:643 JLINK_IsHalted()  returns FALSE (0001ms, 0765ms total)
T6438 001:645 JLINK_IsHalted()  returns FALSE (0001ms, 0765ms total)
T6438 001:647 JLINK_IsHalted()  returns FALSE (0001ms, 0765ms total)
T6438 001:649 JLINK_IsHalted() -- CPU_ReadMem(2 bytes @ 0x20000000)  returns TRUE (0005ms, 0769ms total)
T6438 001:654 JLINK_ReadReg(R15 (PC))  returns 0x20000000 (0000ms, 0764ms total)
T6438 001:654 JLINK_ClrBPEx(BPHandle = 0x0000000E)  returns 0x00 (0000ms, 0764ms total)
T6438 001:654 JLINK_ReadReg(R0)  returns 0x00000000 (0000ms, 0764ms total)
T6438 001:657 JLINK_WriteMem(0x20000164, 0x0400 Bytes, ...) - Data: 2E F8 0F B0 00 BD 00 00 E5 FF FF FF 00 7B 00 F0 ... -- CPU_WriteMem(1024 bytes @ 0x20000164)  returns 0x400 (0008ms, 0772ms total)
T6438 001:665 JLINK_WriteReg(R0, 0x08001400)  returns 0x00 (0000ms, 0772ms total)
T6438 001:665 JLINK_WriteReg(R1, 0x000000E0)  returns 0x00 (0000ms, 0772ms total)
T6438 001:665 JLINK_WriteReg(R2, 0x20000164)  returns 0x00 (0000ms, 0772ms total)
T6438 001:665 JLINK_WriteReg(R3, 0x00000000)  returns 0x00 (0000ms, 0772ms total)
T6438 001:665 JLINK_WriteReg(R4, 0x00000000)  returns 0x00 (0000ms, 0772ms total)
T6438 001:665 JLINK_WriteReg(R5, 0x00000000)  returns 0x00 (0000ms, 0772ms total)
T6438 001:665 JLINK_WriteReg(R6, 0x00000000)  returns 0x00 (0000ms, 0772ms total)
T6438 001:665 JLINK_WriteReg(R7, 0x00000000)  returns 0x00 (0000ms, 0772ms total)
T6438 001:665 JLINK_WriteReg(R8, 0x00000000)  returns 0x00 (0000ms, 0772ms total)
T6438 001:665 JLINK_WriteReg(R9, 0x20000160)  returns 0x00 (0000ms, 0772ms total)
T6438 001:665 JLINK_WriteReg(R10, 0x00000000)  returns 0x00 (0000ms, 0772ms total)
T6438 001:665 JLINK_WriteReg(R11, 0x00000000)  returns 0x00 (0000ms, 0772ms total)
T6438 001:665 JLINK_WriteReg(R12, 0x00000000)  returns 0x00 (0000ms, 0772ms total)
T6438 001:665 JLINK_WriteReg(R13 (SP), 0x20000800)  returns 0x00 (0000ms, 0772ms total)
T6438 001:665 JLINK_WriteReg(R14, 0x20000001)  returns 0x00 (0000ms, 0772ms total)
T6438 001:665 JLINK_WriteReg(R15 (PC), 0x200000F4)  returns 0x00 (0000ms, 0772ms total)
T6438 001:665 JLINK_WriteReg(XPSR, 0x01000000)  returns 0x00 (0000ms, 0772ms total)
T6438 001:665 JLINK_WriteReg(MSP, 0x20000800)  returns 0x00 (0000ms, 0772ms total)
